
TA2E0 000:002 SEGGER J-Link V6.32i Log File (0000ms, 0002ms total)
TA2E0 000:002 DLL Compiled: Jul 24 2018 15:19:55 (0000ms, 0002ms total)
TA2E0 000:002 Logging started @ 2024-09-14 20:57 (0000ms, 0002ms total)
TA2E0 000:002 JLINK_SetWarnOutHandler(...) (0000ms, 0002ms total)
TA2E0 000:002 JLINK_OpenEx(...)
Firmware: J-Link V9 compiled Apr 20 2018 16:47:26
Hardware: V9.60
S/N: 69653244
Feature(s): RDI, GDB, FlashDL, FlashBP, JFlash
TELNET listener socket opened on port 19021WEBSRV 
Starting webserver (0017ms, 0019ms total)
TA2E0 000:002 WEBSRV Webserver running on local port 19080 (0017ms, 0019ms total)
TA2E0 000:002   returns O.K. (0017ms, 0019ms total)
TA2E0 000:019 JLINK_GetEmuCaps()  returns 0xB9FF7BBF (0000ms, 0019ms total)
TA2E0 000:019 JLINK_TIF_GetAvailable(...) (0000ms, 0019ms total)
TA2E0 000:019 JLINK_SetErrorOutHandler(...) (0000ms, 0019ms total)
TA2E0 000:019 JLINK_ExecCommand("ProjectFile = "D:\Code\STM32\资料\STM32H743VIT6板子资料\STM32H743VIT6板子资料包\STM32H743VIT6板子资料包\实验例程\基础例程-LED灯闪烁\基础例程-LED灯闪烁\基础例程-LED灯闪烁\USER\JLinkSettings.ini"", ...). Ref file found at: E:\Keil_v5\ARM\Segger\JLinkDevices.ref (0001ms, 0020ms total)
TA2E0 000:019 XML referenced by ref file: C:\Program Files (x86)\SEGGER\JLink_V632i\JLinkDevices.xml (0001ms, 0020ms total)
TA2E0 000:019 C:\Program Files (x86)\SEGGER\JLink_V632i\JLinkDevices.xml evaluated successfully.Device "STM32H743VI" selected.  returns 0x00 (0034ms, 0053ms total)
TA2E0 000:053 JLINK_ExecCommand("Device = STM32H743VITx", ...). Device "STM32H743VI" selected.  returns 0x00 (0002ms, 0055ms total)
TA2E0 000:055 JLINK_ExecCommand("DisableConnectionTimeout", ...).   returns 0x01 (0000ms, 0055ms total)
TA2E0 000:055 JLINK_GetHardwareVersion()  returns 0x17700 (0000ms, 0055ms total)
TA2E0 000:055 JLINK_GetDLLVersion()  returns 63209 (0000ms, 0055ms total)
TA2E0 000:055 JLINK_GetFirmwareString(...) (0000ms, 0055ms total)
TA2E0 000:055 JLINK_GetDLLVersion()  returns 63209 (0000ms, 0055ms total)
TA2E0 000:055 JLINK_GetCompileDateTime() (0000ms, 0055ms total)
TA2E0 000:055 JLINK_GetFirmwareString(...) (0000ms, 0055ms total)
TA2E0 000:055 JLINK_GetHardwareVersion()  returns 0x17700 (0000ms, 0055ms total)
TA2E0 000:055 JLINK_TIF_Select(JLINKARM_TIF_SWD)  returns 0x00 (0002ms, 0057ms total)
TA2E0 000:057 JLINK_SetSpeed(5000) (0000ms, 0057ms total)
TA2E0 000:057 JLINK_GetId() >0x10B TIF>Found SW-DP with ID 0x6BA02477 >0x0D TIF> >0x28 TIF> >0x0D TIF> >0x28 TIF> >0x0D TIF> >0x28 TIF> >0x0D TIF> >0x28 TIF> >0x0D TIF> >0x21 TIF> >0x0D TIF> >0x28 TIF>Scanning AP map to find all available APs >0x0D TIF> >0x28 TIF> >0x0D TIF> >0x21 TIF> >0x0D TIF> >0x21 TIF> >0x0D TIF> >0x28 TIF> >0x0D TIF> >0x21 TIF> >0x0D TIF> >0x21 TIF> >0x0D TIF> >0x28 TIF> >0x0D TIF> >0x21 TIF> >0x0D TIF> >0x21 TIF> >0x0D TIF> >0x28 TIF> >0x0D TIF> >0x21 TIF> >0x0D TIF> >0x21 TIF>
AP[3]: Stopped AP scan as end of AP map has been reachedAP[0]: AHB-AP (IDR: 0x84770001)AP[1]: AHB-AP (IDR: 0x84770001)AP[2]: APB-AP (IDR: 0x54770002)Iterating through AP map to find AHB-AP to use >0x42 TIF> >0x28 TIF> >0x0D TIF> >0x28 TIF> >0x0D TIF> >0x21 TIF> >0x0D TIF> >0x21 TIF> >0x42 TIF> >0x28 TIF> >0x0D TIF> >0x28 TIF> >0x0D TIF> >0x28 TIF> >0x0D TIF> >0x21 TIF> >0x0D TIF> >0x21 TIF>AP[0]: Core foundAP[0]: AHB-AP ROM base: 0xE00FE000 >0x0D TIF> >0x28 TIF> >0x0D TIF> >0x28 TIF> >0x0D TIF>
 >0x28 TIF> >0x0D TIF> >0x21 TIF> >0x0D TIF> >0x21 TIF>CPUID register: 0x411FC271. Implementer code: 0x41 (ARM)Found Cortex-M7 r1p1, Little endian. -- Max. mem block: 0x00010F28 -- CPU_ReadMem(4 bytes @ 0xE000EDF0) -- CPU_WriteMem(4 bytes @ 0xE000EDF0) -- CPU_ReadMem(4 bytes @ 0xE0002000)FPUnit: 8 code (BP) slots and 0 literal slots -- CPU_ReadMem(4 bytes @ 0xE000EDFC) -- CPU_WriteMem(4 bytes @ 0xE000EDFC) -- CPU_ReadMem(4 bytes @ 0xE0001000) -- CPU_WriteMem(4 bytes @ 0xE0001000)
 -- CPU_ReadMem(4 bytes @ 0xE000ED88) -- CPU_WriteMem(4 bytes @ 0xE000ED88) -- CPU_ReadMem(4 bytes @ 0xE000ED88) -- CPU_WriteMem(4 bytes @ 0xE000ED88)CoreSight components:ROMTbl[0] @ E00FE000 -- CPU_ReadMem(16 bytes @ 0xE00FE000) -- CPU_ReadMem(16 bytes @ 0xE00FFFF0) -- CPU_ReadMem(16 bytes @ 0xE00FFFE0)ROMTbl[0][0]: E00FF000, CID: B105100D, PID: 000BB4C7 ROM TableROMTbl[1] @ E00FF000 -- CPU_ReadMem(16 bytes @ 0xE00FF000) -- CPU_ReadMem(16 bytes @ 0xE000EFF0) -- CPU_ReadMem(16 bytes @ 0xE000EFE0)
ROMTbl[1][0]: E000E000, CID: B105E00D, PID: 000BB00C SCS-M7 -- CPU_ReadMem(16 bytes @ 0xE0001FF0) -- CPU_ReadMem(16 bytes @ 0xE0001FE0)ROMTbl[1][1]: E0001000, CID: B105E00D, PID: 000BB002 DWT -- CPU_ReadMem(16 bytes @ 0xE0002FF0) -- CPU_ReadMem(16 bytes @ 0xE0002FE0)ROMTbl[1][2]: E0002000, CID: B105E00D, PID: 000BB00E FPB-M7 -- CPU_ReadMem(16 bytes @ 0xE0000FF0) -- CPU_ReadMem(16 bytes @ 0xE0000FE0)ROMTbl[1][3]: E0000000, CID: B105E00D, PID: 000BB001 ITM -- CPU_ReadMem(16 bytes @ 0xE00FF010)
 -- CPU_ReadMem(16 bytes @ 0xE0041FF0) -- CPU_ReadMem(16 bytes @ 0xE0041FE0)ROMTbl[0][1]: E0041000, CID: B105900D, PID: 001BB975 ETM-M7 -- CPU_ReadMem(16 bytes @ 0xE0043FF0) -- CPU_ReadMem(16 bytes @ 0xE0043FE0)ROMTbl[0][2]: E0043000, CID: B105900D, PID: 004BB906 CTI -- CPU_ReadMem(16 bytes @ 0xE00FE010) -- CPU_ReadMem(4 bytes @ 0xE000ED78)Cache: Separate I- and D-cache. (0142ms, 0199ms total)
TA2E0 000:057  -- CPU_WriteMem(4 bytes @ 0xE000ED84) -- CPU_ReadMem(4 bytes @ 0xE000ED80)I-Cache L1: 16 KB, 256 Sets, 32 Bytes/Line, 2-Way -- CPU_WriteMem(4 bytes @ 0xE000ED84) -- CPU_ReadMem(4 bytes @ 0xE000ED80)D-Cache L1: 16 KB, 128 Sets, 32 Bytes/Line, 4-Way >0x0D TIF> >0x21 TIF>  returns 0x6BA02477 (0145ms, 0202ms total)
TA2E0 000:202 JLINK_GetDLLVersion()  returns 63209 (0000ms, 0202ms total)
TA2E0 000:202 JLINK_CORE_GetFound()  returns 0xE0100FF (0000ms, 0202ms total)
TA2E0 000:202 JLINK_GetDebugInfo(0x100 = JLINKARM_ROM_TABLE_ADDR_INDEX) -- Value=0xE00FE000  returns 0x00 (0000ms, 0202ms total)
TA2E0 000:202 JLINK_GetDebugInfo(0x100 = JLINKARM_ROM_TABLE_ADDR_INDEX) -- Value=0xE00FE000  returns 0x00 (0000ms, 0202ms total)
TA2E0 000:202 JLINK_GetDebugInfo(0x101 = JLINKARM_DEBUG_INFO_ETM_ADDR_INDEX) -- Value=0xE0041000  returns 0x00 (0000ms, 0202ms total)
TA2E0 000:202 JLINK_ReadMemEx(0xE0041FD0, 0x0020 Bytes, ..., Flags = 0x02000004) -- CPU_ReadMem(32 bytes @ 0xE0041FD0) - Data: 04 00 00 00 00 00 00 00 00 00 00 00 00 00 00 00 ...  returns 0x20 (0001ms, 0203ms total)
TA2E0 000:203 JLINK_GetDebugInfo(0x102 = JLINKARM_DEBUG_INFO_MTB_ADDR_INDEX) -- Value=0x00000000  returns 0x00 (0000ms, 0203ms total)
TA2E0 000:203 JLINK_GetDebugInfo(0x103 = JLINKARM_DEBUG_INFO_TPIU_ADDR_INDEX) -- Value=0x00000000  returns 0x00 (0000ms, 0203ms total)
TA2E0 000:203 JLINK_ReadMemEx(0xE0040FF0, 0x0010 Bytes, ..., Flags = 0x02000004) -- CPU_ReadMem(16 bytes @ 0xE0040FF0) - Data: 00 00 00 00 00 00 00 00 00 00 00 00 00 00 00 00  returns 0x10 (0000ms, 0203ms total)
TA2E0 000:203 JLINK_GetDebugInfo(0x104 = JLINKARM_DEBUG_INFO_ITM_ADDR_INDEX) -- Value=0xE0000000  returns 0x00 (0000ms, 0203ms total)
TA2E0 000:203 JLINK_GetDebugInfo(0x105 = JLINKARM_DEBUG_INFO_DWT_ADDR_INDEX) -- Value=0xE0001000  returns 0x00 (0000ms, 0203ms total)
TA2E0 000:203 JLINK_GetDebugInfo(0x106 = JLINKARM_DEBUG_INFO_FPB_ADDR_INDEX) -- Value=0xE0002000  returns 0x00 (0001ms, 0204ms total)
TA2E0 000:204 JLINK_GetDebugInfo(0x107 = JLINKARM_DEBUG_INFO_NVIC_ADDR_INDEX) -- Value=0xE000E000  returns 0x00 (0000ms, 0204ms total)
TA2E0 000:204 JLINK_GetDebugInfo(0x10C = JLINKARM_DEBUG_INFO_DBG_ADDR_INDEX) -- Value=0xE000EDF0  returns 0x00 (0000ms, 0204ms total)
TA2E0 000:204 JLINK_ReadMemU32(0xE000ED00, 0x0001 Items, ...) -- CPU_ReadMem(4 bytes @ 0xE000ED00) - Data: 71 C2 1F 41  returns 0x01 (0000ms, 0204ms total)
TA2E0 000:204 JLINK_GetDebugInfo(0x10F = JLINKARM_DEBUG_INFO_HAS_CORTEX_M_SECURITY_EXT_INDEX) -- Value=0x00000000  returns 0x00 (0000ms, 0204ms total)
TA2E0 000:204 JLINK_SetResetType(JLINKARM_CM3_RESET_TYPE_NORMAL)  returns JLINKARM_CM3_RESET_TYPE_NORMAL (0000ms, 0204ms total)
TA2E0 000:204 JLINK_Reset() -- CPU is running -- CPU_WriteMem(4 bytes @ 0xE000EDF0) -- CPU is running -- CPU_WriteMem(4 bytes @ 0xE000EDFC)Reset: Halt core after reset via DEMCR.VC_CORERESET. >0x35 TIF>Reset: Reset device via AIRCR.SYSRESETREQ. -- CPU is running -- CPU_WriteMem(4 bytes @ 0xE000ED0C) >0x0D TIF> >0x28 TIF> -- CPU_ReadMem(4 bytes @ 0xE000EDF0) -- CPU_ReadMem(4 bytes @ 0xE000EDF0) -- CPU is running -- CPU_WriteMem(4 bytes @ 0xE000EDF0) -- CPU is running -- CPU_WriteMem(4 bytes @ 0xE000EDFC)
 -- CPU_ReadMem(4 bytes @ 0xE000EDF0) -- CPU_WriteMem(4 bytes @ 0xE0002000) -- CPU_ReadMem(4 bytes @ 0xE000EDFC) -- CPU_ReadMem(4 bytes @ 0xE0001000) (0065ms, 0269ms total)
TA2E0 000:269 JLINK_ReadReg(R15 (PC))  returns 0x08100018 (0000ms, 0269ms total)
TA2E0 000:269 JLINK_ReadReg(XPSR)  returns 0x01000000 (0000ms, 0269ms total)
TA2E0 000:269 JLINK_Halt()  returns 0x00 (0000ms, 0269ms total)
TA2E0 000:269 JLINK_ReadMemU32(0xE000EDF0, 0x0001 Items, ...) -- CPU_ReadMem(4 bytes @ 0xE000EDF0) - Data: 03 00 03 00  returns 0x01 (0000ms, 0269ms total)
TA2E0 000:269 JLINK_WriteU32(0xE000EDF0, 0xA05F0003) -- CPU_WriteMem(4 bytes @ 0xE000EDF0)  returns 0x00 (0003ms, 0272ms total)
TA2E0 000:272 JLINK_WriteU32(0xE000EDFC, 0x01000000) -- CPU_WriteMem(4 bytes @ 0xE000EDFC)  returns 0x00 (0000ms, 0272ms total)
TA2E0 000:272 JLINK_GetHWStatus(...)  returns 0x00 (0000ms, 0272ms total)
TA2E0 000:272 JLINK_GetNumBPUnits(Type = 0xFFFFFF00)  returns 0x08 (0000ms, 0272ms total)
TA2E0 000:272 JLINK_GetNumBPUnits(Type = 0xF0)  returns 0x2000 (0000ms, 0272ms total)
TA2E0 000:272 JLINK_GetNumWPUnits()  returns 0x04 (0000ms, 0272ms total)
TA2E0 000:273 JLINK_GetSpeed()  returns 0xFA0 (0000ms, 0272ms total)
TA2E0 000:273 JLINK_ReadMemU32(0xE000E004, 0x0001 Items, ...) -- CPU_ReadMem(4 bytes @ 0xE000E004) - Data: 04 00 00 00  returns 0x01 (0000ms, 0272ms total)
TA2E0 000:273 JLINK_ReadMemU32(0xE000E004, 0x0001 Items, ...) -- CPU_ReadMem(4 bytes @ 0xE000E004) - Data: 04 00 00 00  returns 0x01 (0001ms, 0273ms total)
TA2E0 000:274 JLINK_WriteMemEx(0xE0001000, 0x001C Bytes, ..., Flags = 0x02000004) - Data: 01 00 00 00 00 00 00 00 00 00 00 00 00 00 00 00 ... -- CPU_WriteMem(28 bytes @ 0xE0001000)  returns 0x1C (0000ms, 0273ms total)
TA2E0 000:274 JLINK_ReadReg(R15 (PC))  returns 0x08100018 (0000ms, 0273ms total)
TA2E0 000:274 JLINK_ReadReg(XPSR)  returns 0x01000000 (0000ms, 0273ms total)
TA2E0 000:403 JLINK_SetResetType(JLINKARM_CM3_RESET_TYPE_NORMAL)  returns JLINKARM_CM3_RESET_TYPE_NORMAL (0000ms, 0273ms total)
TA2E0 000:403 JLINK_Reset() -- CPU_WriteMem(4 bytes @ 0xE000EDF0) -- CPU_WriteMem(4 bytes @ 0xE000EDFC)Reset: Halt core after reset via DEMCR.VC_CORERESET. >0x35 TIF>Reset: Reset device via AIRCR.SYSRESETREQ. -- CPU_WriteMem(4 bytes @ 0xE000ED0C) >0x0D TIF> >0x28 TIF> -- CPU_ReadMem(4 bytes @ 0xE000EDF0) -- CPU_ReadMem(4 bytes @ 0xE000EDF0) -- CPU_WriteMem(4 bytes @ 0xE000EDF0) -- CPU_WriteMem(4 bytes @ 0xE000EDFC) -- CPU_ReadMem(4 bytes @ 0xE000EDF0) -- CPU_WriteMem(4 bytes @ 0xE0002000)
 -- CPU_ReadMem(4 bytes @ 0xE000EDFC) -- CPU_ReadMem(4 bytes @ 0xE0001000) (0064ms, 0337ms total)
TA2E0 000:468 JLINK_ReadReg(R15 (PC))  returns 0x08100018 (0000ms, 0337ms total)
TA2E0 000:468 JLINK_ReadReg(XPSR)  returns 0x01000000 (0000ms, 0337ms total)
TA2E0 000:468 JLINK_ReadReg(R0)  returns 0x00000000 (0000ms, 0337ms total)
TA2E0 000:468 JLINK_ReadReg(R1)  returns 0x00000000 (0000ms, 0337ms total)
TA2E0 000:468 JLINK_ReadReg(R2)  returns 0x00000000 (0000ms, 0337ms total)
TA2E0 000:468 JLINK_ReadReg(R3)  returns 0x00000000 (0000ms, 0337ms total)
TA2E0 000:468 JLINK_ReadReg(R4)  returns 0x00000000 (0000ms, 0337ms total)
TA2E0 000:468 JLINK_ReadReg(R5)  returns 0x00000000 (0000ms, 0337ms total)
TA2E0 000:468 JLINK_ReadReg(R6)  returns 0x00000000 (0000ms, 0337ms total)
TA2E0 000:468 JLINK_ReadReg(R7)  returns 0x00000000 (0000ms, 0337ms total)
TA2E0 000:468 JLINK_ReadReg(R8)  returns 0x00000000 (0000ms, 0337ms total)
TA2E0 000:468 JLINK_ReadReg(R9)  returns 0x00000000 (0000ms, 0337ms total)
TA2E0 000:468 JLINK_ReadReg(R10)  returns 0x00000000 (0000ms, 0337ms total)
TA2E0 000:468 JLINK_ReadReg(R11)  returns 0x00000000 (0000ms, 0337ms total)
TA2E0 000:468 JLINK_ReadReg(R12)  returns 0x00000000 (0000ms, 0337ms total)
TA2E0 000:468 JLINK_ReadReg(R13 (SP))  returns 0x240007C8 (0000ms, 0337ms total)
TA2E0 000:468 JLINK_ReadReg(R14)  returns 0xFFFFFFFF (0000ms, 0337ms total)
TA2E0 000:468 JLINK_ReadReg(R15 (PC))  returns 0x08100018 (0000ms, 0337ms total)
TA2E0 000:468 JLINK_ReadReg(XPSR)  returns 0x01000000 (0000ms, 0337ms total)
TA2E0 000:468 JLINK_ReadReg(MSP)  returns 0x240007C8 (0000ms, 0337ms total)
TA2E0 000:468 JLINK_ReadReg(PSP)  returns 0x00000000 (0000ms, 0337ms total)
TA2E0 000:468 JLINK_ReadReg(CFBP)  returns 0x00000000 (0000ms, 0337ms total)
TA2E0 000:468 JLINK_ReadReg(FPSCR)  returns 0x00000000 (0003ms, 0340ms total)
TA2E0 000:471 JLINK_ReadReg(FPS0)  returns 0x00000000 (0000ms, 0340ms total)
TA2E0 000:471 JLINK_ReadReg(FPS1)  returns 0x00000000 (0000ms, 0340ms total)
TA2E0 000:471 JLINK_ReadReg(FPS2)  returns 0x00000000 (0000ms, 0340ms total)
TA2E0 000:471 JLINK_ReadReg(FPS3)  returns 0x00000000 (0000ms, 0340ms total)
TA2E0 000:471 JLINK_ReadReg(FPS4)  returns 0x00000000 (0000ms, 0340ms total)
TA2E0 000:471 JLINK_ReadReg(FPS5)  returns 0x00000000 (0000ms, 0340ms total)
TA2E0 000:471 JLINK_ReadReg(FPS6)  returns 0x00000000 (0000ms, 0340ms total)
TA2E0 000:471 JLINK_ReadReg(FPS7)  returns 0x00000000 (0000ms, 0340ms total)
TA2E0 000:471 JLINK_ReadReg(FPS8)  returns 0x00000000 (0000ms, 0340ms total)
TA2E0 000:471 JLINK_ReadReg(FPS9)  returns 0x00000000 (0000ms, 0340ms total)
TA2E0 000:471 JLINK_ReadReg(FPS10)  returns 0x00000000 (0000ms, 0340ms total)
TA2E0 000:471 JLINK_ReadReg(FPS11)  returns 0x00000000 (0000ms, 0340ms total)
TA2E0 000:471 JLINK_ReadReg(FPS12)  returns 0x00000000 (0000ms, 0340ms total)
TA2E0 000:471 JLINK_ReadReg(FPS13)  returns 0x00000000 (0000ms, 0340ms total)
TA2E0 000:471 JLINK_ReadReg(FPS14)  returns 0x00000000 (0000ms, 0340ms total)
TA2E0 000:471 JLINK_ReadReg(FPS15)  returns 0xFFFFFFFF (0000ms, 0340ms total)
TA2E0 000:471 JLINK_ReadReg(FPS16)  returns 0x00000000 (0000ms, 0340ms total)
TA2E0 000:471 JLINK_ReadReg(FPS17)  returns 0x00000000 (0000ms, 0340ms total)
TA2E0 000:471 JLINK_ReadReg(FPS18)  returns 0x00000000 (0000ms, 0340ms total)
TA2E0 000:471 JLINK_ReadReg(FPS19)  returns 0x00000000 (0000ms, 0340ms total)
TA2E0 000:471 JLINK_ReadReg(FPS20)  returns 0x00000000 (0000ms, 0340ms total)
TA2E0 000:471 JLINK_ReadReg(FPS21)  returns 0x00000000 (0000ms, 0340ms total)
TA2E0 000:471 JLINK_ReadReg(FPS22)  returns 0x00000000 (0000ms, 0340ms total)
TA2E0 000:471 JLINK_ReadReg(FPS23)  returns 0x00000000 (0000ms, 0340ms total)
TA2E0 000:471 JLINK_ReadReg(FPS24)  returns 0x00000000 (0000ms, 0340ms total)
TA2E0 000:471 JLINK_ReadReg(FPS25)  returns 0x00000000 (0000ms, 0340ms total)
TA2E0 000:471 JLINK_ReadReg(FPS26)  returns 0x00000000 (0000ms, 0340ms total)
TA2E0 000:471 JLINK_ReadReg(FPS27)  returns 0x00000000 (0000ms, 0340ms total)
TA2E0 000:471 JLINK_ReadReg(FPS28)  returns 0x00000000 (0000ms, 0340ms total)
TA2E0 000:471 JLINK_ReadReg(FPS29)  returns 0x00000000 (0000ms, 0340ms total)
TA2E0 000:471 JLINK_ReadReg(FPS30)  returns 0x00000000 (0000ms, 0340ms total)
TA2E0 000:471 JLINK_ReadReg(FPS31)  returns 0xFFFFFFFF (0000ms, 0340ms total)
TA2E0 000:471 JLINK_ReadMemU32(0xE0001004, 0x0001 Items, ...) - Data: 00 00 00 00  returns 0x01 (0000ms, 0340ms total)
TA2E0 000:779 JLINK_ReadMemEx(0x08100018, 0x003C Bytes, ..., Flags = 0x02000000) -- CPU_ReadMem(128 bytes @ 0x08100000) -- Updating C cache (128 bytes @ 0x08100000) -- Read from C cache (60 bytes @ 0x08100018) - Data: 09 48 80 47 09 48 00 47 FE E7 FE E7 FE E7 FE E7 ...  returns 0x3C (0002ms, 0342ms total)
T97F8 003:879 JLINK_ReadMemEx(0x08100018, 0x0002 Bytes, ..., Flags = 0x02000000) -- Read from C cache (2 bytes @ 0x08100018) - Data: 09 48  returns 0x02 (0000ms, 0342ms total)
T97F8 003:879 JLINK_SetBPEx(Addr = 0x081017AC, Type = 0xFFFFFFF2)  returns 0x00000001 (0000ms, 0342ms total)
T97F8 003:879 JLINK_Go() -- CPU_WriteMem(4 bytes @ 0xE0002000) -- CPU_ReadMem(4 bytes @ 0xE0001000) -- CPU_WriteMem(4 bytes @ 0xE0002008) -- CPU_WriteMem(4 bytes @ 0xE000200C) -- CPU_WriteMem(4 bytes @ 0xE0002010) -- CPU_WriteMem(4 bytes @ 0xE0002014) -- CPU_WriteMem(4 bytes @ 0xE0002018) -- CPU_WriteMem(4 bytes @ 0xE000201C) -- CPU_WriteMem(4 bytes @ 0xE0002020) -- CPU_WriteMem(4 bytes @ 0xE0002024) -- CPU_WriteMem(4 bytes @ 0xE0001004) (0004ms, 0346ms total)
T97F8 003:985 JLINK_IsHalted()  returns TRUE (0002ms, 0348ms total)
T97F8 003:987 JLINK_Halt()  returns 0x00 (0000ms, 0346ms total)
T97F8 003:987 JLINK_IsHalted()  returns TRUE (0000ms, 0346ms total)
T97F8 003:987 JLINK_IsHalted()  returns TRUE (0000ms, 0346ms total)
T97F8 003:987 JLINK_IsHalted()  returns TRUE (0000ms, 0346ms total)
T97F8 003:987 JLINK_ReadReg(R15 (PC))  returns 0x081017AC (0000ms, 0346ms total)
T97F8 003:987 JLINK_ReadReg(XPSR)  returns 0x21000000 (0000ms, 0346ms total)
T97F8 003:987 JLINK_ClrBPEx(BPHandle = 0x00000001)  returns 0x00 (0000ms, 0346ms total)
T97F8 003:987 JLINK_ReadMemU32(0xE000ED30, 0x0001 Items, ...) -- CPU_ReadMem(4 bytes @ 0xE000ED30) - Data: 02 00 00 00  returns 0x01 (0000ms, 0346ms total)
T97F8 003:987 JLINK_ReadMemU32(0xE0001028, 0x0001 Items, ...) -- CPU_ReadMem(4 bytes @ 0xE0001028) - Data: 00 00 00 00  returns 0x01 (0001ms, 0347ms total)
T97F8 003:988 JLINK_ReadMemU32(0xE0001038, 0x0001 Items, ...) -- CPU_ReadMem(4 bytes @ 0xE0001038) - Data: 00 02 00 00  returns 0x01 (0000ms, 0347ms total)
T97F8 003:988 JLINK_ReadMemU32(0xE0001048, 0x0001 Items, ...) -- CPU_ReadMem(4 bytes @ 0xE0001048) - Data: 00 00 00 00  returns 0x01 (0000ms, 0347ms total)
T97F8 003:988 JLINK_ReadMemU32(0xE0001058, 0x0001 Items, ...) -- CPU_ReadMem(4 bytes @ 0xE0001058) - Data: 00 00 00 00  returns 0x01 (0001ms, 0348ms total)
T97F8 003:989 JLINK_ReadReg(R0)  returns 0x240001C8 (0000ms, 0348ms total)
T97F8 003:989 JLINK_ReadReg(R1)  returns 0x240003C8 (0000ms, 0348ms total)
T97F8 003:989 JLINK_ReadReg(R2)  returns 0x240003C8 (0000ms, 0348ms total)
T97F8 003:989 JLINK_ReadReg(R3)  returns 0x240003C8 (0000ms, 0348ms total)
T97F8 003:989 JLINK_ReadReg(R4)  returns 0x00000000 (0000ms, 0348ms total)
T97F8 003:989 JLINK_ReadReg(R5)  returns 0x24000168 (0000ms, 0348ms total)
T97F8 003:989 JLINK_ReadReg(R6)  returns 0x00000000 (0000ms, 0348ms total)
T97F8 003:989 JLINK_ReadReg(R7)  returns 0x00000000 (0000ms, 0348ms total)
T97F8 003:989 JLINK_ReadReg(R8)  returns 0x00000000 (0000ms, 0348ms total)
T97F8 003:989 JLINK_ReadReg(R9)  returns 0x00000000 (0000ms, 0348ms total)
T97F8 003:989 JLINK_ReadReg(R10)  returns 0x080018EC (0000ms, 0348ms total)
T97F8 003:989 JLINK_ReadReg(R11)  returns 0x00000000 (0000ms, 0348ms total)
T97F8 003:989 JLINK_ReadReg(R12)  returns 0x240001A8 (0000ms, 0348ms total)
T97F8 003:989 JLINK_ReadReg(R13 (SP))  returns 0x240007C8 (0000ms, 0348ms total)
T97F8 003:989 JLINK_ReadReg(R14)  returns 0x08100013 (0000ms, 0348ms total)
T97F8 003:989 JLINK_ReadReg(R15 (PC))  returns 0x081017AC (0000ms, 0348ms total)
T97F8 003:989 JLINK_ReadReg(XPSR)  returns 0x21000000 (0000ms, 0348ms total)
T97F8 003:989 JLINK_ReadReg(MSP)  returns 0x240007C8 (0000ms, 0348ms total)
T97F8 003:989 JLINK_ReadReg(PSP)  returns 0x00000000 (0000ms, 0348ms total)
T97F8 003:989 JLINK_ReadReg(CFBP)  returns 0x04000000 (0000ms, 0348ms total)
T97F8 003:989 JLINK_ReadReg(FPSCR)  returns 0x03000000 (0003ms, 0351ms total)
T97F8 003:992 JLINK_ReadReg(FPS0)  returns 0x00000000 (0000ms, 0351ms total)
T97F8 003:992 JLINK_ReadReg(FPS1)  returns 0x00000000 (0000ms, 0351ms total)
T97F8 003:992 JLINK_ReadReg(FPS2)  returns 0x00000000 (0000ms, 0351ms total)
T97F8 003:992 JLINK_ReadReg(FPS3)  returns 0x00000000 (0000ms, 0351ms total)
T97F8 003:992 JLINK_ReadReg(FPS4)  returns 0x00000000 (0000ms, 0351ms total)
T97F8 003:992 JLINK_ReadReg(FPS5)  returns 0x00000000 (0000ms, 0351ms total)
T97F8 003:992 JLINK_ReadReg(FPS6)  returns 0x00000000 (0000ms, 0351ms total)
T97F8 003:992 JLINK_ReadReg(FPS7)  returns 0x00000000 (0000ms, 0351ms total)
T97F8 003:992 JLINK_ReadReg(FPS8)  returns 0x00000000 (0000ms, 0351ms total)
T97F8 003:992 JLINK_ReadReg(FPS9)  returns 0x00000000 (0000ms, 0351ms total)
T97F8 003:992 JLINK_ReadReg(FPS10)  returns 0x00000000 (0000ms, 0351ms total)
T97F8 003:992 JLINK_ReadReg(FPS11)  returns 0x00000000 (0000ms, 0351ms total)
T97F8 003:992 JLINK_ReadReg(FPS12)  returns 0x00000000 (0000ms, 0351ms total)
T97F8 003:992 JLINK_ReadReg(FPS13)  returns 0x00000000 (0000ms, 0351ms total)
T97F8 003:992 JLINK_ReadReg(FPS14)  returns 0x00000000 (0000ms, 0351ms total)
T97F8 003:992 JLINK_ReadReg(FPS15)  returns 0xFFFFFFFF (0000ms, 0351ms total)
T97F8 003:992 JLINK_ReadReg(FPS16)  returns 0x00000000 (0000ms, 0351ms total)
T97F8 003:992 JLINK_ReadReg(FPS17)  returns 0x00000000 (0000ms, 0351ms total)
T97F8 003:992 JLINK_ReadReg(FPS18)  returns 0x00000000 (0000ms, 0351ms total)
T97F8 003:992 JLINK_ReadReg(FPS19)  returns 0x00000000 (0000ms, 0351ms total)
T97F8 003:992 JLINK_ReadReg(FPS20)  returns 0x00000000 (0000ms, 0351ms total)
T97F8 003:992 JLINK_ReadReg(FPS21)  returns 0x00000000 (0000ms, 0351ms total)
T97F8 003:992 JLINK_ReadReg(FPS22)  returns 0x00000000 (0000ms, 0351ms total)
T97F8 003:992 JLINK_ReadReg(FPS23)  returns 0x00000000 (0000ms, 0351ms total)
T97F8 003:992 JLINK_ReadReg(FPS24)  returns 0x00000000 (0000ms, 0351ms total)
T97F8 003:992 JLINK_ReadReg(FPS25)  returns 0x00000000 (0000ms, 0351ms total)
T97F8 003:992 JLINK_ReadReg(FPS26)  returns 0x00000000 (0000ms, 0351ms total)
T97F8 003:992 JLINK_ReadReg(FPS27)  returns 0x00000000 (0000ms, 0351ms total)
T97F8 003:992 JLINK_ReadReg(FPS28)  returns 0x00000000 (0000ms, 0351ms total)
T97F8 003:992 JLINK_ReadReg(FPS29)  returns 0x00000000 (0001ms, 0352ms total)
T97F8 003:993 JLINK_ReadReg(FPS30)  returns 0x00000000 (0000ms, 0352ms total)
T97F8 003:993 JLINK_ReadReg(FPS31)  returns 0xFFFFFFFF (0000ms, 0352ms total)
TA2E0 004:009 JLINK_ReadMemU32(0xE0001004, 0x0001 Items, ...) -- CPU_ReadMem(4 bytes @ 0xE0001004) - Data: CA 05 00 00  returns 0x01 (0001ms, 0353ms total)
TA2E0 004:013 JLINK_ReadMemEx(0x081016AC, 0x003C Bytes, ..., Flags = 0x02000000) -- CPU_ReadMem(128 bytes @ 0x08101680) -- Updating C cache (128 bytes @ 0x08101680) -- Read from C cache (60 bytes @ 0x081016AC) - Data: 37 E0 25 E0 B0 FB F1 F0 80 B2 21 68 C8 60 0E E0 ...  returns 0x3C (0001ms, 0354ms total)
TA2E0 004:014 JLINK_ReadMemEx(0x081016E8, 0x003C Bytes, ..., Flags = 0x02000000) -- CPU_ReadMem(64 bytes @ 0x08101700) -- Updating C cache (64 bytes @ 0x08101700) -- Read from C cache (60 bytes @ 0x081016E8) - Data: F0 F0 61 68 00 EB 51 00 B0 FB F1 F0 80 B2 21 68 ...  returns 0x3C (0001ms, 0355ms total)
TA2E0 004:015 JLINK_ReadMemEx(0x08101724, 0x003C Bytes, ..., Flags = 0x02000000) -- CPU_ReadMem(64 bytes @ 0x08101740) -- Updating C cache (64 bytes @ 0x08101740) -- Read from C cache (60 bytes @ 0x08101724) - Data: 00 BF 00 BF 08 98 09 B0 BD E8 F0 8F 30 18 10 08 ...  returns 0x3C (0001ms, 0356ms total)
TA2E0 004:016 JLINK_ReadMemEx(0x08101760, 0x003C Bytes, ..., Flags = 0x02000000) -- CPU_ReadMem(64 bytes @ 0x08101780) -- Updating C cache (64 bytes @ 0x08101780) -- Read from C cache (60 bytes @ 0x08101760) - Data: F6 D1 00 BF 00 24 03 E0 64 1C AC 42 00 D9 06 E0 ...  returns 0x3C (0000ms, 0356ms total)
TA2E0 004:016 JLINK_ReadMemEx(0x0810179C, 0x003C Bytes, ..., Flags = 0x02000000) -- CPU_ReadMem(64 bytes @ 0x081017C0) -- Updating C cache (64 bytes @ 0x081017C0) -- Read from C cache (60 bytes @ 0x0810179C) - Data: 4F F4 7A 70 00 F7 2E F8 6D 1C A5 42 F8 D3 30 BD ...  returns 0x3C (0001ms, 0357ms total)
T97F8 015:721 JLINK_ReadMemEx(0x081017AC, 0x0002 Bytes, ..., Flags = 0x02000000) -- Read from C cache (2 bytes @ 0x081017AC) - Data: FE F7  returns 0x02 (0000ms, 0357ms total)
T97F8 015:721 JLINK_Go() -- CPU_ReadMem(4 bytes @ 0xE0001000) -- CPU_WriteMem(4 bytes @ 0xE0002008) (0002ms, 0359ms total)
T97F8 015:825 JLINK_IsHalted()  returns FALSE (0000ms, 0359ms total)
T97F8 015:925 JLINK_IsHalted()  returns FALSE (0001ms, 0360ms total)
T97F8 016:027 JLINK_IsHalted()  returns FALSE (0000ms, 0359ms total)
T97F8 016:128 JLINK_IsHalted()  returns FALSE (0000ms, 0359ms total)
T97F8 016:228 JLINK_IsHalted()  returns FALSE (0000ms, 0359ms total)
T97F8 016:330 JLINK_IsHalted()  returns FALSE (0000ms, 0359ms total)
T97F8 016:431 JLINK_IsHalted()  returns FALSE (0000ms, 0359ms total)
T97F8 016:533 JLINK_IsHalted()  returns FALSE (0000ms, 0359ms total)
T97F8 016:633 JLINK_IsHalted()  returns FALSE (0000ms, 0359ms total)
T97F8 016:734 JLINK_IsHalted()  returns FALSE (0000ms, 0359ms total)
T97F8 016:836 JLINK_IsHalted()  returns FALSE (0000ms, 0359ms total)
T97F8 016:937 JLINK_IsHalted()  returns FALSE (0000ms, 0359ms total)
T97F8 017:038 JLINK_IsHalted()  returns FALSE (0000ms, 0359ms total)
T97F8 017:139 JLINK_IsHalted()  returns FALSE (0000ms, 0359ms total)
T97F8 017:240 JLINK_IsHalted()  returns FALSE (0000ms, 0359ms total)
T97F8 017:341 JLINK_IsHalted()  returns FALSE (0000ms, 0359ms total)
T97F8 017:442 JLINK_IsHalted()  returns FALSE (0000ms, 0359ms total)
T97F8 017:543 JLINK_IsHalted()  returns FALSE (0000ms, 0359ms total)
T97F8 017:644 JLINK_IsHalted()  returns FALSE (0000ms, 0359ms total)
T97F8 017:746 JLINK_IsHalted()  returns FALSE (0000ms, 0359ms total)
T97F8 017:847 JLINK_IsHalted()  returns FALSE (0000ms, 0359ms total)
T97F8 017:948 JLINK_IsHalted()  returns FALSE (0000ms, 0359ms total)
T97F8 018:049 JLINK_IsHalted()  returns FALSE (0000ms, 0359ms total)
T97F8 018:150 JLINK_IsHalted()  returns FALSE (0000ms, 0359ms total)
T97F8 018:252 JLINK_IsHalted()  returns FALSE (0000ms, 0359ms total)
T97F8 018:353 JLINK_IsHalted()  returns FALSE (0000ms, 0359ms total)
T97F8 018:454 JLINK_IsHalted()  returns FALSE (0000ms, 0359ms total)
T97F8 018:555 JLINK_IsHalted()  returns FALSE (0000ms, 0359ms total)
T97F8 018:656 JLINK_IsHalted()  returns FALSE (0000ms, 0359ms total)
T97F8 018:758 JLINK_IsHalted()  returns FALSE (0000ms, 0359ms total)
T97F8 018:859 JLINK_IsHalted()  returns FALSE (0000ms, 0359ms total)
T97F8 018:960 JLINK_IsHalted()  returns FALSE (0000ms, 0359ms total)
T97F8 019:062 JLINK_IsHalted()  returns FALSE (0000ms, 0359ms total)
T97F8 019:163 JLINK_IsHalted()  returns FALSE (0000ms, 0359ms total)
T97F8 019:264 JLINK_IsHalted()  returns FALSE (0000ms, 0359ms total)
T97F8 019:365 JLINK_IsHalted()  returns FALSE (0000ms, 0359ms total)
T97F8 019:466 JLINK_IsHalted()  returns FALSE (0000ms, 0359ms total)
T97F8 019:567 JLINK_IsHalted()  returns FALSE (0000ms, 0359ms total)
T97F8 019:668 JLINK_IsHalted()  returns FALSE (0000ms, 0359ms total)
T97F8 019:769 JLINK_IsHalted()  returns FALSE (0000ms, 0359ms total)
T97F8 019:870 JLINK_IsHalted()  returns FALSE (0000ms, 0359ms total)
T97F8 019:971 JLINK_IsHalted()  returns FALSE (0000ms, 0359ms total)
T97F8 020:072 JLINK_IsHalted()  returns FALSE (0000ms, 0359ms total)
T97F8 020:173 JLINK_IsHalted()  returns FALSE (0000ms, 0359ms total)
T97F8 020:274 JLINK_IsHalted()  returns FALSE (0000ms, 0359ms total)
T97F8 020:375 JLINK_IsHalted()  returns FALSE (0000ms, 0359ms total)
T97F8 020:476 JLINK_IsHalted()  returns FALSE (0000ms, 0359ms total)
T97F8 020:577 JLINK_IsHalted()  returns FALSE (0000ms, 0359ms total)
T97F8 020:679 JLINK_IsHalted()  returns FALSE (0000ms, 0359ms total)
T97F8 020:780 JLINK_IsHalted()  returns FALSE (0000ms, 0359ms total)
T97F8 020:881 JLINK_IsHalted()  returns FALSE (0000ms, 0359ms total)
T97F8 020:982 JLINK_IsHalted()  returns FALSE (0000ms, 0359ms total)
T97F8 021:083 JLINK_IsHalted()  returns FALSE (0000ms, 0359ms total)
T97F8 021:184 JLINK_IsHalted()  returns FALSE (0000ms, 0359ms total)
T97F8 021:285 JLINK_Halt()  returns 0x00 (0001ms, 0360ms total)
T97F8 021:286 JLINK_IsHalted()  returns TRUE (0000ms, 0360ms total)
T97F8 021:286 JLINK_IsHalted()  returns TRUE (0000ms, 0360ms total)
T97F8 021:286 JLINK_IsHalted()  returns TRUE (0000ms, 0360ms total)
T97F8 021:286 JLINK_ReadReg(R15 (PC))  returns 0x08001820 (0000ms, 0360ms total)
T97F8 021:286 JLINK_ReadReg(XPSR)  returns 0x81000000 (0000ms, 0360ms total)
T97F8 021:286 JLINK_ReadMemU32(0xE000ED30, 0x0001 Items, ...) -- CPU_ReadMem(4 bytes @ 0xE000ED30) - Data: 01 00 00 00  returns 0x01 (0001ms, 0361ms total)
T97F8 021:287 JLINK_ReadMemU32(0xE0001028, 0x0001 Items, ...) -- CPU_ReadMem(4 bytes @ 0xE0001028) - Data: 00 00 00 00  returns 0x01 (0000ms, 0361ms total)
T97F8 021:287 JLINK_ReadMemU32(0xE0001038, 0x0001 Items, ...) -- CPU_ReadMem(4 bytes @ 0xE0001038) - Data: 00 02 00 00  returns 0x01 (0002ms, 0363ms total)
T97F8 021:289 JLINK_ReadMemU32(0xE0001048, 0x0001 Items, ...) -- CPU_ReadMem(4 bytes @ 0xE0001048) - Data: 00 00 00 00  returns 0x01 (0000ms, 0363ms total)
T97F8 021:289 JLINK_ReadMemU32(0xE0001058, 0x0001 Items, ...) -- CPU_ReadMem(4 bytes @ 0xE0001058) - Data: 00 00 00 00  returns 0x01 (0001ms, 0364ms total)
T97F8 021:290 JLINK_ReadReg(R0)  returns 0x0000435B (0000ms, 0364ms total)
T97F8 021:290 JLINK_ReadReg(R1)  returns 0x0000435B (0000ms, 0364ms total)
T97F8 021:290 JLINK_ReadReg(R2)  returns 0x00039BC7 (0000ms, 0364ms total)
T97F8 021:290 JLINK_ReadReg(R3)  returns 0x000003E8 (0000ms, 0364ms total)
T97F8 021:290 JLINK_ReadReg(R4)  returns 0x00061A80 (0000ms, 0364ms total)
T97F8 021:290 JLINK_ReadReg(R5)  returns 0x0006226E (0000ms, 0364ms total)
T97F8 021:290 JLINK_ReadReg(R6)  returns 0xE000E000 (0000ms, 0364ms total)
T97F8 021:290 JLINK_ReadReg(R7)  returns 0x00000000 (0000ms, 0364ms total)
T97F8 021:290 JLINK_ReadReg(R8)  returns 0x00000000 (0000ms, 0364ms total)
T97F8 021:290 JLINK_ReadReg(R9)  returns 0x00000000 (0000ms, 0364ms total)
T97F8 021:290 JLINK_ReadReg(R10)  returns 0x080018EC (0000ms, 0364ms total)
T97F8 021:290 JLINK_ReadReg(R11)  returns 0x00000000 (0000ms, 0364ms total)
T97F8 021:290 JLINK_ReadReg(R12)  returns 0x0000001E (0000ms, 0364ms total)
T97F8 021:290 JLINK_ReadReg(R13 (SP))  returns 0x240007AC (0000ms, 0364ms total)
T97F8 021:290 JLINK_ReadReg(R14)  returns 0x081017A5 (0000ms, 0364ms total)
T97F8 021:290 JLINK_ReadReg(R15 (PC))  returns 0x08001820 (0000ms, 0364ms total)
T97F8 021:290 JLINK_ReadReg(XPSR)  returns 0x81000000 (0000ms, 0364ms total)
T97F8 021:290 JLINK_ReadReg(MSP)  returns 0x240007AC (0000ms, 0364ms total)
T97F8 021:290 JLINK_ReadReg(PSP)  returns 0x00000000 (0000ms, 0364ms total)
T97F8 021:290 JLINK_ReadReg(CFBP)  returns 0x04000000 (0000ms, 0364ms total)
T97F8 021:290 JLINK_ReadReg(FPSCR)  returns 0x03000010 (0003ms, 0367ms total)
T97F8 021:293 JLINK_ReadReg(FPS0)  returns 0x45D00000 (0000ms, 0367ms total)
T97F8 021:293 JLINK_ReadReg(FPS1)  returns 0x00000002 (0000ms, 0367ms total)
T97F8 021:293 JLINK_ReadReg(FPS2)  returns 0x4E3FB415 (0000ms, 0367ms total)
T97F8 021:293 JLINK_ReadReg(FPS3)  returns 0x17F682A0 (0000ms, 0367ms total)
T97F8 021:293 JLINK_ReadReg(FPS4)  returns 0x4DBFB415 (0000ms, 0367ms total)
T97F8 021:293 JLINK_ReadReg(FPS5)  returns 0x3F800000 (0000ms, 0367ms total)
T97F8 021:293 JLINK_ReadReg(FPS6)  returns 0x00000000 (0000ms, 0367ms total)
T97F8 021:293 JLINK_ReadReg(FPS7)  returns 0x00000000 (0000ms, 0367ms total)
T97F8 021:293 JLINK_ReadReg(FPS8)  returns 0x00000000 (0000ms, 0367ms total)
T97F8 021:293 JLINK_ReadReg(FPS9)  returns 0x00000000 (0000ms, 0367ms total)
T97F8 021:293 JLINK_ReadReg(FPS10)  returns 0x00000000 (0000ms, 0367ms total)
T97F8 021:293 JLINK_ReadReg(FPS11)  returns 0x00000000 (0000ms, 0367ms total)
T97F8 021:293 JLINK_ReadReg(FPS12)  returns 0x00000000 (0000ms, 0367ms total)
T97F8 021:293 JLINK_ReadReg(FPS13)  returns 0x00000000 (0000ms, 0367ms total)
T97F8 021:293 JLINK_ReadReg(FPS14)  returns 0x00000000 (0000ms, 0367ms total)
T97F8 021:293 JLINK_ReadReg(FPS15)  returns 0xFFFFFFFF (0000ms, 0367ms total)
T97F8 021:293 JLINK_ReadReg(FPS16)  returns 0x00000000 (0000ms, 0367ms total)
T97F8 021:293 JLINK_ReadReg(FPS17)  returns 0x00000000 (0000ms, 0367ms total)
T97F8 021:293 JLINK_ReadReg(FPS18)  returns 0x00000000 (0000ms, 0367ms total)
T97F8 021:293 JLINK_ReadReg(FPS19)  returns 0x00000000 (0000ms, 0367ms total)
T97F8 021:293 JLINK_ReadReg(FPS20)  returns 0x00000000 (0000ms, 0367ms total)
T97F8 021:293 JLINK_ReadReg(FPS21)  returns 0x00000000 (0000ms, 0367ms total)
T97F8 021:293 JLINK_ReadReg(FPS22)  returns 0x00000000 (0000ms, 0367ms total)
T97F8 021:293 JLINK_ReadReg(FPS23)  returns 0x00000000 (0000ms, 0367ms total)
T97F8 021:293 JLINK_ReadReg(FPS24)  returns 0x00000000 (0000ms, 0367ms total)
T97F8 021:293 JLINK_ReadReg(FPS25)  returns 0x00000000 (0000ms, 0367ms total)
T97F8 021:293 JLINK_ReadReg(FPS26)  returns 0x00000000 (0000ms, 0367ms total)
T97F8 021:293 JLINK_ReadReg(FPS27)  returns 0x00000000 (0000ms, 0367ms total)
T97F8 021:293 JLINK_ReadReg(FPS28)  returns 0x00000000 (0000ms, 0367ms total)
T97F8 021:293 JLINK_ReadReg(FPS29)  returns 0x00000000 (0000ms, 0367ms total)
T97F8 021:293 JLINK_ReadReg(FPS30)  returns 0x00000000 (0000ms, 0367ms total)
T97F8 021:293 JLINK_ReadReg(FPS31)  returns 0xFFFFFFFF (0000ms, 0367ms total)
TA2E0 021:294 JLINK_ReadMemEx(0x240007B8, 0x0004 Bytes, ..., Flags = 0x02000000) -- CPU_ReadMem(64 bytes @ 0x24000780) -- Updating C cache (64 bytes @ 0x24000780) -- Read from C cache (4 bytes @ 0x240007B8) - Data: A5 17 10 08  returns 0x04 (0000ms, 0367ms total)
TA2E0 021:294 JLINK_ReadMemEx(0x240007AC, 0x0004 Bytes, ..., Flags = 0x02000000) -- Read from C cache (4 bytes @ 0x240007AC) - Data: F4 01 00 00  returns 0x04 (0000ms, 0367ms total)
TA2E0 021:294 JLINK_ReadMemEx(0x240007B0, 0x0004 Bytes, ..., Flags = 0x02000000) -- Read from C cache (4 bytes @ 0x240007B0) - Data: 58 00 00 00  returns 0x04 (0000ms, 0367ms total)
TA2E0 021:294 JLINK_ReadMemEx(0x240007B4, 0x0004 Bytes, ..., Flags = 0x02000000) -- Read from C cache (4 bytes @ 0x240007B4) - Data: 00 00 00 00  returns 0x04 (0000ms, 0367ms total)
TA2E0 021:294 JLINK_ReadMemEx(0x240007C4, 0x0004 Bytes, ..., Flags = 0x02000000) -- CPU_ReadMem(64 bytes @ 0x240007C0) -- Updating C cache (64 bytes @ 0x240007C0) -- Read from C cache (4 bytes @ 0x240007C4) - Data: 29 18 10 08  returns 0x04 (0001ms, 0368ms total)
TA2E0 021:295 JLINK_ReadMemEx(0x240007BC, 0x0004 Bytes, ..., Flags = 0x02000000) -- Read from C cache (4 bytes @ 0x240007BC) - Data: 00 00 00 00  returns 0x04 (0000ms, 0368ms total)
TA2E0 021:295 JLINK_ReadMemEx(0x240007C0, 0x0004 Bytes, ..., Flags = 0x02000000) -- Read from C cache (4 bytes @ 0x240007C0) - Data: 68 01 00 24  returns 0x04 (0000ms, 0368ms total)
TA2E0 021:302 JLINK_ReadMemU32(0xE0001004, 0x0001 Items, ...) -- CPU_ReadMem(4 bytes @ 0xE0001004) - Data: AF 44 42 85  returns 0x01 (0001ms, 0369ms total)
TA2E0 021:310 JLINK_ReadMemEx(0x08001820, 0x003C Bytes, ..., Flags = 0x02000000) -- CPU_ReadMem(128 bytes @ 0x08001800) -- Updating C cache (128 bytes @ 0x08001800) -- Read from C cache (60 bytes @ 0x08001820) - Data: B0 69 88 42 0B D0 88 42 02 D2 0E 1A 32 44 02 E0 ...  returns 0x3C (0001ms, 0370ms total)
TA2E0 024:133 JLINK_SetResetType(JLINKARM_CM3_RESET_TYPE_NORMAL)  returns JLINKARM_CM3_RESET_TYPE_NORMAL (0000ms, 0370ms total)
TA2E0 024:133 JLINK_Reset() -- CPU_WriteMem(4 bytes @ 0xE000EDF0) -- CPU_WriteMem(4 bytes @ 0xE000EDFC)Reset: Halt core after reset via DEMCR.VC_CORERESET. >0x35 TIF>Reset: Reset device via AIRCR.SYSRESETREQ. -- CPU_WriteMem(4 bytes @ 0xE000ED0C) >0x0D TIF> >0x28 TIF> -- CPU_ReadMem(4 bytes @ 0xE000EDF0) -- CPU_ReadMem(4 bytes @ 0xE000EDF0) -- CPU_WriteMem(4 bytes @ 0xE000EDF0) -- CPU_WriteMem(4 bytes @ 0xE000EDFC) -- CPU_ReadMem(4 bytes @ 0xE000EDF0) -- CPU_WriteMem(4 bytes @ 0xE0002000)
 -- CPU_ReadMem(4 bytes @ 0xE000EDFC) -- CPU_ReadMem(4 bytes @ 0xE0001000) (0065ms, 0435ms total)
TA2E0 024:198 JLINK_ReadReg(R15 (PC))  returns 0x08100018 (0000ms, 0435ms total)
TA2E0 024:198 JLINK_ReadReg(XPSR)  returns 0x01000000 (0000ms, 0435ms total)
TA2E0 024:198 JLINK_ReadReg(R0)  returns 0x00000000 (0000ms, 0435ms total)
TA2E0 024:198 JLINK_ReadReg(R1)  returns 0x00000000 (0000ms, 0435ms total)
TA2E0 024:198 JLINK_ReadReg(R2)  returns 0x00000000 (0000ms, 0435ms total)
TA2E0 024:198 JLINK_ReadReg(R3)  returns 0x00000000 (0000ms, 0435ms total)
TA2E0 024:198 JLINK_ReadReg(R4)  returns 0x00000000 (0000ms, 0435ms total)
TA2E0 024:198 JLINK_ReadReg(R5)  returns 0x00000000 (0000ms, 0435ms total)
TA2E0 024:198 JLINK_ReadReg(R6)  returns 0x00000000 (0000ms, 0435ms total)
TA2E0 024:198 JLINK_ReadReg(R7)  returns 0x00000000 (0000ms, 0435ms total)
TA2E0 024:198 JLINK_ReadReg(R8)  returns 0x00000000 (0000ms, 0435ms total)
TA2E0 024:198 JLINK_ReadReg(R9)  returns 0x00000000 (0000ms, 0435ms total)
TA2E0 024:198 JLINK_ReadReg(R10)  returns 0x00000000 (0000ms, 0435ms total)
TA2E0 024:198 JLINK_ReadReg(R11)  returns 0x00000000 (0000ms, 0435ms total)
TA2E0 024:198 JLINK_ReadReg(R12)  returns 0x00000000 (0000ms, 0435ms total)
TA2E0 024:198 JLINK_ReadReg(R13 (SP))  returns 0x240007C8 (0000ms, 0435ms total)
TA2E0 024:198 JLINK_ReadReg(R14)  returns 0xFFFFFFFF (0000ms, 0435ms total)
TA2E0 024:198 JLINK_ReadReg(R15 (PC))  returns 0x08100018 (0000ms, 0435ms total)
TA2E0 024:198 JLINK_ReadReg(XPSR)  returns 0x01000000 (0000ms, 0435ms total)
TA2E0 024:198 JLINK_ReadReg(MSP)  returns 0x240007C8 (0000ms, 0435ms total)
TA2E0 024:198 JLINK_ReadReg(PSP)  returns 0x00000000 (0000ms, 0435ms total)
TA2E0 024:198 JLINK_ReadReg(CFBP)  returns 0x00000000 (0000ms, 0435ms total)
TA2E0 024:199 JLINK_ReadReg(FPSCR)  returns 0x00000000 (0003ms, 0439ms total)
TA2E0 024:202 JLINK_ReadReg(FPS0)  returns 0x00000000 (0000ms, 0439ms total)
TA2E0 024:202 JLINK_ReadReg(FPS1)  returns 0x00000000 (0000ms, 0439ms total)
TA2E0 024:202 JLINK_ReadReg(FPS2)  returns 0x00000000 (0000ms, 0439ms total)
TA2E0 024:202 JLINK_ReadReg(FPS3)  returns 0x00000000 (0000ms, 0439ms total)
TA2E0 024:202 JLINK_ReadReg(FPS4)  returns 0x00000000 (0000ms, 0439ms total)
TA2E0 024:202 JLINK_ReadReg(FPS5)  returns 0x00000000 (0001ms, 0440ms total)
TA2E0 024:203 JLINK_ReadReg(FPS6)  returns 0x00000000 (0000ms, 0440ms total)
TA2E0 024:203 JLINK_ReadReg(FPS7)  returns 0x00000000 (0000ms, 0440ms total)
TA2E0 024:203 JLINK_ReadReg(FPS8)  returns 0x00000000 (0000ms, 0440ms total)
TA2E0 024:203 JLINK_ReadReg(FPS9)  returns 0x00000000 (0000ms, 0440ms total)
TA2E0 024:203 JLINK_ReadReg(FPS10)  returns 0x00000000 (0000ms, 0440ms total)
TA2E0 024:203 JLINK_ReadReg(FPS11)  returns 0x00000000 (0000ms, 0440ms total)
TA2E0 024:203 JLINK_ReadReg(FPS12)  returns 0x00000000 (0000ms, 0440ms total)
TA2E0 024:203 JLINK_ReadReg(FPS13)  returns 0x00000000 (0000ms, 0440ms total)
TA2E0 024:203 JLINK_ReadReg(FPS14)  returns 0x00000000 (0000ms, 0440ms total)
TA2E0 024:203 JLINK_ReadReg(FPS15)  returns 0xFFFFFFFF (0000ms, 0440ms total)
TA2E0 024:203 JLINK_ReadReg(FPS16)  returns 0x00000000 (0000ms, 0440ms total)
TA2E0 024:203 JLINK_ReadReg(FPS17)  returns 0x00000000 (0000ms, 0440ms total)
TA2E0 024:203 JLINK_ReadReg(FPS18)  returns 0x00000000 (0000ms, 0440ms total)
TA2E0 024:203 JLINK_ReadReg(FPS19)  returns 0x00000000 (0000ms, 0440ms total)
TA2E0 024:203 JLINK_ReadReg(FPS20)  returns 0x00000000 (0000ms, 0440ms total)
TA2E0 024:203 JLINK_ReadReg(FPS21)  returns 0x00000000 (0000ms, 0440ms total)
TA2E0 024:203 JLINK_ReadReg(FPS22)  returns 0x00000000 (0000ms, 0440ms total)
TA2E0 024:203 JLINK_ReadReg(FPS23)  returns 0x00000000 (0000ms, 0440ms total)
TA2E0 024:203 JLINK_ReadReg(FPS24)  returns 0x00000000 (0000ms, 0440ms total)
TA2E0 024:203 JLINK_ReadReg(FPS25)  returns 0x00000000 (0000ms, 0440ms total)
TA2E0 024:203 JLINK_ReadReg(FPS26)  returns 0x00000000 (0000ms, 0440ms total)
TA2E0 024:203 JLINK_ReadReg(FPS27)  returns 0x00000000 (0000ms, 0440ms total)
TA2E0 024:203 JLINK_ReadReg(FPS28)  returns 0x00000000 (0000ms, 0440ms total)
TA2E0 024:203 JLINK_ReadReg(FPS29)  returns 0x00000000 (0000ms, 0440ms total)
TA2E0 024:203 JLINK_ReadReg(FPS30)  returns 0x00000000 (0000ms, 0440ms total)
TA2E0 024:203 JLINK_ReadReg(FPS31)  returns 0xFFFFFFFF (0000ms, 0440ms total)
TA2E0 024:203 JLINK_ReadMemU32(0xE0001004, 0x0001 Items, ...) - Data: 00 00 00 00  returns 0x01 (0000ms, 0440ms total)
TA2E0 024:208 JLINK_ReadMemEx(0x080FFF18, 0x003C Bytes, ..., Flags = 0x02000000) -- CPU_ReadMem(128 bytes @ 0x080FFF00) -- Updating C cache (128 bytes @ 0x080FFF00) -- Read from C cache (60 bytes @ 0x080FFF18) - Data: FF FF FF FF FF FF FF FF FF FF FF FF FF FF FF FF ...  returns 0x3C (0001ms, 0441ms total)
TA2E0 024:209 JLINK_ReadMemEx(0x080FFF54, 0x003C Bytes, ..., Flags = 0x02000000) -- CPU_ReadMem(64 bytes @ 0x080FFF80) -- Updating C cache (64 bytes @ 0x080FFF80) -- Read from C cache (60 bytes @ 0x080FFF54) - Data: FF FF FF FF FF FF FF FF FF FF FF FF FF FF FF FF ...  returns 0x3C (0001ms, 0442ms total)
TA2E0 024:210 JLINK_ReadMemEx(0x080FFF90, 0x003C Bytes, ..., Flags = 0x02000000) -- CPU_ReadMem(64 bytes @ 0x080FFFC0) -- Updating C cache (64 bytes @ 0x080FFFC0) -- Read from C cache (60 bytes @ 0x080FFF90) - Data: FF FF FF FF FF FF FF FF FF FF FF FF FF FF FF FF ...  returns 0x3C (0000ms, 0442ms total)
TA2E0 024:210 JLINK_ReadMemEx(0x080FFFCC, 0x0034 Bytes, ..., Flags = 0x02000000) -- Read from C cache (52 bytes @ 0x080FFFCC) - Data: FF FF FF FF FF FF FF FF FF FF FF FF FF FF FF FF ...  returns 0x34 (0000ms, 0442ms total)
TA2E0 024:210 JLINK_ReadMemEx(0x08100000, 0x0008 Bytes, ..., Flags = 0x02000000) -- CPU_ReadMem(64 bytes @ 0x08100000) -- Updating C cache (64 bytes @ 0x08100000) -- Read from C cache (8 bytes @ 0x08100000) - Data: 10 B5 10 BD 00 F0 9F F8  returns 0x08 (0002ms, 0444ms total)
TA2E0 024:212 JLINK_ReadMemEx(0x08100008, 0x003C Bytes, ..., Flags = 0x02000000) -- CPU_ReadMem(64 bytes @ 0x08100040) -- Updating C cache (64 bytes @ 0x08100040) -- Read from C cache (60 bytes @ 0x08100008) - Data: 11 46 00 F7 7F F9 01 F0 CD FB 00 F0 BD F8 00 00 ...  returns 0x3C (0000ms, 0444ms total)
T97F8 027:950 JLINK_ReadMemEx(0x08100018, 0x0002 Bytes, ..., Flags = 0x02000000) -- Read from C cache (2 bytes @ 0x08100018) - Data: 09 48  returns 0x02 (0000ms, 0444ms total)
T97F8 027:950 JLINK_Step() -- Read from C cache (2 bytes @ 0x08100018) -- CPU_ReadMem(4 bytes @ 0xE000ED18) -- CPU_WriteMem(4 bytes @ 0xE000ED18) -- CPU_ReadMem(4 bytes @ 0xE000ED18) -- CPU_WriteMem(4 bytes @ 0xE000ED18) -- Read from C cache (4 bytes @ 0x08100040) -- Simulated  returns 0x00 (0002ms, 0446ms total)
T97F8 027:952 JLINK_ReadReg(R15 (PC))  returns 0x0810001A (0000ms, 0446ms total)
T97F8 027:952 JLINK_ReadReg(XPSR)  returns 0x01000000 (0000ms, 0446ms total)
T97F8 027:952 JLINK_ReadReg(R0)  returns 0x08001425 (0000ms, 0446ms total)
T97F8 027:952 JLINK_ReadReg(R1)  returns 0x00000000 (0000ms, 0446ms total)
T97F8 027:952 JLINK_ReadReg(R2)  returns 0x00000000 (0000ms, 0446ms total)
T97F8 027:952 JLINK_ReadReg(R3)  returns 0x00000000 (0000ms, 0446ms total)
T97F8 027:952 JLINK_ReadReg(R4)  returns 0x00000000 (0000ms, 0446ms total)
T97F8 027:952 JLINK_ReadReg(R5)  returns 0x00000000 (0000ms, 0446ms total)
T97F8 027:952 JLINK_ReadReg(R6)  returns 0x00000000 (0000ms, 0446ms total)
T97F8 027:952 JLINK_ReadReg(R7)  returns 0x00000000 (0000ms, 0446ms total)
T97F8 027:952 JLINK_ReadReg(R8)  returns 0x00000000 (0000ms, 0446ms total)
T97F8 027:952 JLINK_ReadReg(R9)  returns 0x00000000 (0000ms, 0446ms total)
T97F8 027:952 JLINK_ReadReg(R10)  returns 0x00000000 (0000ms, 0446ms total)
T97F8 027:952 JLINK_ReadReg(R11)  returns 0x00000000 (0000ms, 0446ms total)
T97F8 027:952 JLINK_ReadReg(R12)  returns 0x00000000 (0000ms, 0446ms total)
T97F8 027:952 JLINK_ReadReg(R13 (SP))  returns 0x240007C8 (0000ms, 0446ms total)
T97F8 027:952 JLINK_ReadReg(R14)  returns 0xFFFFFFFF (0000ms, 0446ms total)
T97F8 027:952 JLINK_ReadReg(R15 (PC))  returns 0x0810001A (0000ms, 0446ms total)
T97F8 027:952 JLINK_ReadReg(XPSR)  returns 0x01000000 (0000ms, 0446ms total)
T97F8 027:952 JLINK_ReadReg(MSP)  returns 0x240007C8 (0000ms, 0446ms total)
T97F8 027:952 JLINK_ReadReg(PSP)  returns 0x00000000 (0000ms, 0446ms total)
T97F8 027:952 JLINK_ReadReg(CFBP)  returns 0x00000000 (0000ms, 0446ms total)
T97F8 027:952 JLINK_ReadReg(FPSCR)  returns 0x00000000 (0000ms, 0446ms total)
T97F8 027:952 JLINK_ReadReg(FPS0)  returns 0x00000000 (0000ms, 0446ms total)
T97F8 027:952 JLINK_ReadReg(FPS1)  returns 0x00000000 (0000ms, 0446ms total)
T97F8 027:952 JLINK_ReadReg(FPS2)  returns 0x00000000 (0000ms, 0446ms total)
T97F8 027:952 JLINK_ReadReg(FPS3)  returns 0x00000000 (0000ms, 0446ms total)
T97F8 027:952 JLINK_ReadReg(FPS4)  returns 0x00000000 (0000ms, 0446ms total)
T97F8 027:952 JLINK_ReadReg(FPS5)  returns 0x00000000 (0000ms, 0446ms total)
T97F8 027:952 JLINK_ReadReg(FPS6)  returns 0x00000000 (0000ms, 0446ms total)
T97F8 027:952 JLINK_ReadReg(FPS7)  returns 0x00000000 (0000ms, 0446ms total)
T97F8 027:952 JLINK_ReadReg(FPS8)  returns 0x00000000 (0000ms, 0446ms total)
T97F8 027:952 JLINK_ReadReg(FPS9)  returns 0x00000000 (0000ms, 0446ms total)
T97F8 027:952 JLINK_ReadReg(FPS10)  returns 0x00000000 (0000ms, 0446ms total)
T97F8 027:952 JLINK_ReadReg(FPS11)  returns 0x00000000 (0000ms, 0446ms total)
T97F8 027:952 JLINK_ReadReg(FPS12)  returns 0x00000000 (0000ms, 0446ms total)
T97F8 027:952 JLINK_ReadReg(FPS13)  returns 0x00000000 (0000ms, 0446ms total)
T97F8 027:952 JLINK_ReadReg(FPS14)  returns 0x00000000 (0000ms, 0446ms total)
T97F8 027:952 JLINK_ReadReg(FPS15)  returns 0xFFFFFFFF (0000ms, 0446ms total)
T97F8 027:952 JLINK_ReadReg(FPS16)  returns 0x00000000 (0000ms, 0446ms total)
T97F8 027:952 JLINK_ReadReg(FPS17)  returns 0x00000000 (0000ms, 0446ms total)
T97F8 027:952 JLINK_ReadReg(FPS18)  returns 0x00000000 (0000ms, 0446ms total)
T97F8 027:952 JLINK_ReadReg(FPS19)  returns 0x00000000 (0000ms, 0446ms total)
T97F8 027:952 JLINK_ReadReg(FPS20)  returns 0x00000000 (0000ms, 0446ms total)
T97F8 027:952 JLINK_ReadReg(FPS21)  returns 0x00000000 (0000ms, 0446ms total)
T97F8 027:952 JLINK_ReadReg(FPS22)  returns 0x00000000 (0000ms, 0446ms total)
T97F8 027:952 JLINK_ReadReg(FPS23)  returns 0x00000000 (0000ms, 0446ms total)
T97F8 027:952 JLINK_ReadReg(FPS24)  returns 0x00000000 (0000ms, 0446ms total)
T97F8 027:952 JLINK_ReadReg(FPS25)  returns 0x00000000 (0000ms, 0446ms total)
T97F8 027:952 JLINK_ReadReg(FPS26)  returns 0x00000000 (0000ms, 0446ms total)
T97F8 027:952 JLINK_ReadReg(FPS27)  returns 0x00000000 (0000ms, 0446ms total)
T97F8 027:952 JLINK_ReadReg(FPS28)  returns 0x00000000 (0000ms, 0446ms total)
T97F8 027:952 JLINK_ReadReg(FPS29)  returns 0x00000000 (0000ms, 0446ms total)
T97F8 027:953 JLINK_ReadReg(FPS30)  returns 0x00000000 (0000ms, 0447ms total)
T97F8 027:953 JLINK_ReadReg(FPS31)  returns 0xFFFFFFFF (0000ms, 0447ms total)
TA2E0 027:958 JLINK_ReadMemU32(0xE0001004, 0x0001 Items, ...) - Data: 02 00 00 00  returns 0x01 (0000ms, 0447ms total)
TA2E0 027:967 JLINK_ReadMemEx(0x08100016, 0x0002 Bytes, ..., Flags = 0x02000000) -- Read from C cache (2 bytes @ 0x08100016) - Data: 00 00  returns 0x02 (0000ms, 0447ms total)
TA2E0 027:967 JLINK_ReadMemEx(0x08100018, 0x003C Bytes, ..., Flags = 0x02000000) -- Read from C cache (60 bytes @ 0x08100018) - Data: 09 48 80 47 09 48 00 47 FE E7 FE E7 FE E7 FE E7 ...  returns 0x3C (0000ms, 0447ms total)
T97F8 028:888 JLINK_ReadMemEx(0x0810001A, 0x0002 Bytes, ..., Flags = 0x02000000) -- Read from C cache (2 bytes @ 0x0810001A) - Data: 80 47  returns 0x02 (0000ms, 0447ms total)
T97F8 028:888 JLINK_Step() -- Read from C cache (2 bytes @ 0x0810001A) -- Simulated  returns 0x00 (0001ms, 0448ms total)
T97F8 028:889 JLINK_ReadReg(R15 (PC))  returns 0x08001424 (0000ms, 0448ms total)
T97F8 028:889 JLINK_ReadReg(XPSR)  returns 0x01000000 (0000ms, 0448ms total)
T97F8 028:889 JLINK_ReadReg(R0)  returns 0x08001425 (0000ms, 0448ms total)
T97F8 028:889 JLINK_ReadReg(R1)  returns 0x00000000 (0000ms, 0448ms total)
T97F8 028:889 JLINK_ReadReg(R2)  returns 0x00000000 (0000ms, 0448ms total)
T97F8 028:889 JLINK_ReadReg(R3)  returns 0x00000000 (0000ms, 0448ms total)
T97F8 028:889 JLINK_ReadReg(R4)  returns 0x00000000 (0000ms, 0448ms total)
T97F8 028:889 JLINK_ReadReg(R5)  returns 0x00000000 (0000ms, 0448ms total)
T97F8 028:889 JLINK_ReadReg(R6)  returns 0x00000000 (0000ms, 0448ms total)
T97F8 028:889 JLINK_ReadReg(R7)  returns 0x00000000 (0000ms, 0448ms total)
T97F8 028:889 JLINK_ReadReg(R8)  returns 0x00000000 (0000ms, 0448ms total)
T97F8 028:889 JLINK_ReadReg(R9)  returns 0x00000000 (0000ms, 0448ms total)
T97F8 028:889 JLINK_ReadReg(R10)  returns 0x00000000 (0000ms, 0448ms total)
T97F8 028:889 JLINK_ReadReg(R11)  returns 0x00000000 (0000ms, 0448ms total)
T97F8 028:889 JLINK_ReadReg(R12)  returns 0x00000000 (0000ms, 0448ms total)
T97F8 028:889 JLINK_ReadReg(R13 (SP))  returns 0x240007C8 (0000ms, 0448ms total)
T97F8 028:889 JLINK_ReadReg(R14)  returns 0x0810001D (0000ms, 0448ms total)
T97F8 028:889 JLINK_ReadReg(R15 (PC))  returns 0x08001424 (0000ms, 0448ms total)
T97F8 028:889 JLINK_ReadReg(XPSR)  returns 0x01000000 (0000ms, 0448ms total)
T97F8 028:889 JLINK_ReadReg(MSP)  returns 0x240007C8 (0000ms, 0448ms total)
T97F8 028:889 JLINK_ReadReg(PSP)  returns 0x00000000 (0000ms, 0448ms total)
T97F8 028:889 JLINK_ReadReg(CFBP)  returns 0x00000000 (0000ms, 0448ms total)
T97F8 028:889 JLINK_ReadReg(FPSCR)  returns 0x00000000 (0000ms, 0448ms total)
T97F8 028:889 JLINK_ReadReg(FPS0)  returns 0x00000000 (0000ms, 0448ms total)
T97F8 028:889 JLINK_ReadReg(FPS1)  returns 0x00000000 (0000ms, 0448ms total)
T97F8 028:889 JLINK_ReadReg(FPS2)  returns 0x00000000 (0000ms, 0448ms total)
T97F8 028:889 JLINK_ReadReg(FPS3)  returns 0x00000000 (0000ms, 0448ms total)
T97F8 028:889 JLINK_ReadReg(FPS4)  returns 0x00000000 (0000ms, 0448ms total)
T97F8 028:889 JLINK_ReadReg(FPS5)  returns 0x00000000 (0000ms, 0448ms total)
T97F8 028:889 JLINK_ReadReg(FPS6)  returns 0x00000000 (0000ms, 0448ms total)
T97F8 028:889 JLINK_ReadReg(FPS7)  returns 0x00000000 (0000ms, 0448ms total)
T97F8 028:889 JLINK_ReadReg(FPS8)  returns 0x00000000 (0000ms, 0448ms total)
T97F8 028:889 JLINK_ReadReg(FPS9)  returns 0x00000000 (0000ms, 0448ms total)
T97F8 028:889 JLINK_ReadReg(FPS10)  returns 0x00000000 (0000ms, 0448ms total)
T97F8 028:889 JLINK_ReadReg(FPS11)  returns 0x00000000 (0000ms, 0448ms total)
T97F8 028:889 JLINK_ReadReg(FPS12)  returns 0x00000000 (0000ms, 0448ms total)
T97F8 028:889 JLINK_ReadReg(FPS13)  returns 0x00000000 (0000ms, 0448ms total)
